LTspice 24.0.12 for Windows
Circuit: * C:\Users\Ernesto\Desktop\IngenierŪa Electrůnica\9- Noveno Semestre\Electrůnica Analůgica III\TP2 - Amplificador de Microondas\Archivos de la Simulaciůn\Fuente de Corriente en LTSpice\TP2 - DiseŮo de la fuente de corriente.asc
Start Time: Mon May  4 04:36:55 2026
solver = Normal
Maximum thread count: 12
tnom = 25
temp = 27
method = modified trap
gmin = 1e-12
Direct Newton iteration failed to find .op point.  (Use ".option noopiter" to skip.)
Starting Gmin stepping
Gmin = 10
Gmin = 1.07374
Gmin = 0.115292
Gmin = 0.0123794
Gmin = 0.00132923
Gmin = 0.000142725
Gmin = 1.5325e-05
vernier = 0.5
Gmin = 3.1742e-06
vernier = 0.25
vernier = 0.333333
Gmin = 1.91467e-06
vernier = 0.444444
vernier = 0.592592
Gmin = 6.57701e-07
vernier = 0.790123
Gmin = 1.28327e-07
vernier = 1
Gmin = 1.3779e-08
Gmin = 1.47951e-09
Gmin = 1.58861e-10
Gmin = 1.70576e-11
Gmin = 1.83154e-12
Gmin = 1.9666e-13
Gmin = 0
Gmin stepping succeeded in finding the operating point.

Semiconductor Device Operating Points:
                        --- Diodes ---
Name:    d:u1:2      d:u1:3      d:u1:4      d:u1:5      d:u1:1
Model:  u1:dbias    u1:dbias      u1:xu       u1:xd       u1:yu
Id:     -1.03e-08   -1.03e-08   -8.32e-11   -1.68e-11    1.46e-14
Vd:     -4.00e+00   -4.00e+00   -4.16e+00   -8.42e-01    1.46e-02
Req:     1.00e+12    1.00e+12    2.00e-11    2.00e-11    1.00e-12
CAP:     0.00e+00    0.00e+00    0.00e+00    0.00e+00    0.00e+00

Name:    d:u1:6
Model:    u1:yd
Id:     -1.46e-14
Vd:     -1.46e-02
Req:     1.00e-12
CAP:     0.00e+00

                        --- Bipolar Transistors ---
Name:     q:u2:1
Model:  u2:m_bfp760
Ib:       1.73e-04
Ic:       4.00e-02
Vbe:      8.27e-01
Vbc:     -1.73e-01
Vce:      1.00e+00
BetaDC:   2.31e+02
Gm:       1.10e+00
Rpi:      1.50e+02
Rx:       2.68e+00
Ro:       6.85e+03
Cbe:      2.94e-12
Cbc:      1.15e-13
Cjs:      2.20e-13
BetaAC:   1.65e+02
Cbx:      4.94e-14
Ft:       5.66e+10

                        --- VDMOSFET Transistors ---
Name:        m:u1:1      m:u1:2
Model:        u1:n        u1:p
Id:          4.62e-04   -2.88e-04
Vgs:         1.46e-02    1.46e-02
Vds:         4.17e+00   -8.27e-01
Vth:        -1.22e-01    1.23e-01
Gm:          6.76e-03    5.34e-03
Gds:         0.00e+00    0.00e+00
Cgs:         0.00e+00    0.00e+00
Cgd:         0.00e+00    0.00e+00
Cbody:       0.00e+00    0.00e+00


Total elapsed time: 0.104 seconds.

