LTspice 24.0.12 for Windows
Circuit: * C:\Users\Ernesto\Desktop\IngenierÝa Electrˇnica\9- Noveno Semestre\Electrˇnica Analˇgica III\TP2 - Amplificador de Microondas\Archivos de la Simulaciˇn\Fuente de Corriente en LTSpice\Idea N░2 - LM317\TP2 - Idea N2 con LM317.asc
Start Time: Tue May  5 09:22:56 2026
solver = Normal
Maximum thread count: 12
tnom = 25
temp = 27
method = modified trap
gmin = 1e-12
Direct Newton iteration failed to find .op point.  (Use ".option noopiter" to skip.)
Starting Gmin stepping
Gmin = 10
Gmin = 1.07374
Gmin = 0.115292
Gmin = 0.0123794
Gmin = 0.00132923
Gmin = 0.000142725
Gmin = 1.5325e-05
Gmin = 1.6455e-06
vernier = 0.5
vernier = 0.25
Gmin = 3.45087e-07
vernier = 0.125
vernier = 0.0625
vernier = 0.03125
vernier = 0.015625
vernier = 0.0208333
Gmin = 3.36672e-07
vernier = 0.0277778
Gmin = 3.16883e-07
vernier = 0.037037
vernier = 0.0493827
Gmin = 2.87006e-07
vernier = 0.0658435
vernier = 0.0877914
Gmin = 2.45432e-07
vernier = 0.117055
Gmin = 1.90614e-07
vernier = 0.156073
vernier = 0.208098
Gmin = 1.26419e-07
vernier = 0.277464
vernier = 0.369952
Gmin = 6.64597e-08
vernier = 0.493269
Gmin = 2.38761e-08
vernier = 0.657691
vernier = 0.876922
Gmin = 4.70478e-09
vernier = 1
Gmin = 5.44392e-10
Gmin = 5.84537e-11
Gmin = 6.27641e-12
Gmin = 6.73925e-13
Gmin = 0
Gmin stepping succeeded in finding the operating point.

Semiconductor Device Operating Points:
                        --- Diodes ---
Name:    d:u1:1      d:u1:2      d:u1:3
Model:    u1:dz       u1:dz       u1:dz
Id:     -5.75e-12   -2.97e-12   -2.97e-12
Vd:     -5.74e+00   -2.96e+00   -2.96e+00
Req:     1.00e+12    1.00e+12    1.00e+12
CAP:     0.00e+00    0.00e+00    0.00e+00

                        --- Bipolar Transistors ---
Name:     q:u1:2      q:u1:4      q:u1:6      q:u1:8      q:u1:9
Model:    u1:qpl      u1:qpl      u1:qpl      u1:qpl      u1:qpl
Ib:      -6.97e-07   -6.87e-07    4.59e-13   -2.31e-05    8.98e-12
Ic:      -2.79e-05   -2.93e-05   -3.91e-12   -1.17e-05   -5.53e-12
Vbe:     -1.31e+00   -1.31e+00   -7.84e-01   -1.31e+00    3.44e+00
Vbc:      0.00e+00    3.30e+00    1.31e+00   -1.07e+00    5.53e+00
Vce:     -1.31e+00   -4.60e+00   -2.09e+00   -2.43e-01   -2.09e+00
BetaDC:   4.00e+01    4.26e+01   -8.52e+00    5.07e-01   -6.16e-01
Gm:       8.98e-04    9.44e-04    8.39e-11    9.40e-04    6.37e-70
Rpi:      4.45e+04    4.52e+04    3.28e+11    2.22e+04    1.00e+12
Rx:       2.00e+02    2.00e+02    1.00e+02    1.00e+02    1.00e+02
Ro:       1.79e+06    1.82e+06    1.97e+13    1.22e+03    0.00e+00
Cbe:      8.84e-13    9.12e-13    5.15e-13    1.75e-12    1.70e-13
Cbc:      1.00e-13    5.74e-14    1.43e-13    8.81e-12    9.92e-14
Cjs:      0.00e+00    0.00e+00    0.00e+00    0.00e+00    0.00e+00
BetaAC:   4.00e+01    4.26e+01    2.76e+01    2.09e+01    6.37e-58
Cbx:      0.00e+00    0.00e+00    0.00e+00    0.00e+00    0.00e+00
Ft:       1.45e+08    1.55e+08    2.03e+01    1.42e+07    5.91e-01

Name:     q:u1:10     q:u1:12     q:u1:14     q:u1:15     q:u1:16
Model:    u1:qpl      u1:qpl      u1:qpl      u1:qpl      u1:qpl
Ib:      -1.56e-06   -2.91e-06   -2.58e-07   -1.76e-07   -2.88e-08
Ic:      -6.46e-05   -1.20e-04   -1.07e-05   -7.26e-06   -1.15e-06
Vbe:     -1.31e+00   -1.33e+00   -1.26e+00   -1.24e+00   -1.19e+00
Vbc:      1.88e+00    1.40e+00    1.85e+00    1.52e+00    3.08e-02
Vce:     -3.19e+00   -2.74e+00   -3.11e+00   -2.76e+00   -1.22e+00
BetaDC:   4.15e+01    4.11e+01    4.15e+01    4.12e+01    4.00e+01
Gm:       2.08e-03    3.86e-03    3.44e-04    2.34e-04    3.71e-05
Rpi:      1.99e+04    1.06e+04    1.20e+05    1.76e+05    1.08e+06
Rx:       1.00e+02    1.00e+02    1.00e+02    1.00e+02    1.00e+02
Ro:       8.03e+05    4.29e+05    4.85e+06    7.09e+06    4.35e+07
Cbe:      1.94e-12    3.01e-12    8.80e-13    8.09e-13    6.72e-13
Cbc:      1.32e-13    1.41e-13    1.33e-13    1.39e-13    1.98e-13
Cjs:      0.00e+00    0.00e+00    0.00e+00    0.00e+00    0.00e+00
BetaAC:   4.15e+01    4.11e+01    4.15e+01    4.12e+01    4.00e+01
Cbx:      0.00e+00    0.00e+00    0.00e+00    0.00e+00    0.00e+00
Ft:       1.60e+08    1.95e+08    5.41e+07    3.92e+07    6.78e+06

Name:     q:u1:18     q:u1:20    q:u1:22a    q:u1:22b     q:u1:3
Model:    u1:qpl      u1:qpl      u1:qpl      u1:qpl      u1:qnl
Ib:      -2.88e-08    2.53e-12   -7.19e-06   -7.19e-06    6.56e-07
Ic:      -1.15e-06   -2.63e-12   -2.88e-04   -2.98e-04    5.42e-05
Vbe:     -1.19e+00   -1.03e-01   -1.36e+00   -1.36e+00    1.31e+00
Vbc:      0.00e+00    2.63e+00    0.00e+00    1.83e+00   -3.30e+00
Vce:     -1.19e+00   -2.74e+00   -1.36e+00   -3.19e+00    4.60e+00
BetaDC:   4.00e+01   -1.04e+00    4.00e+01    4.15e+01    8.26e+01
Gm:       3.70e-05    2.58e-20    9.26e-03    9.60e-03    1.75e-03
Rpi:      1.08e+06    1.00e+12    4.32e+03    4.32e+03    4.73e+04
Rx:       1.00e+02    1.00e+02    1.00e+02    1.00e+02    5.00e+02
Ro:       4.35e+07    6.56e+22    1.74e+05    1.74e+05    1.91e+06
Cbe:      6.72e-13    3.16e-13    6.27e-12    6.47e-12    1.44e-12
Cbc:      2.00e-13    1.22e-13    2.00e-13    1.33e-13    1.15e-13
Cjs:      0.00e+00    0.00e+00    0.00e+00    0.00e+00    3.00e-13
BetaAC:   4.00e+01    2.58e-08    4.00e+01    4.14e+01    8.26e+01
Cbx:      0.00e+00    0.00e+00    0.00e+00    0.00e+00    0.00e+00
Ft:       6.75e+06    3.64e-01    2.28e+08    2.31e+08    1.78e+08

Name:     q:u1:5      q:u1:7      q:u1:11     q:u1:13     q:u1:17
Model:    u1:qnl      u1:qnl      u1:qnl      u1:qnl      u1:qnl
Ib:       8.98e-07    1.40e-07   -2.74e-12    3.26e-06    1.63e-08
Ic:       7.18e-05    1.17e-05    1.15e-11    2.69e-04    1.33e-06
Vbe:      1.32e+00    1.26e+00    4.80e-08    1.36e+00    1.19e+00
Vbc:      9.36e-03   -4.23e+00   -2.74e+00   -3.17e+00   -1.52e+00
Vce:      1.31e+00    5.49e+00    2.74e+00    4.53e+00    2.71e+00
BetaDC:   8.00e+01    8.34e+01   -4.22e+00    8.25e+01    8.12e+01
Gm:       2.31e-03    3.77e-04    9.27e-22    8.66e-03    4.28e-05
Rpi:      3.46e+04    2.21e+05    1.00e+12    9.52e+03    1.90e+06
Rx:       5.00e+02    5.00e+02    5.00e+02    5.00e+02    5.00e+02
Ro:       1.39e+06    8.90e+06    3.57e+24    3.84e+05    7.65e+07
Cbe:      1.62e-12    1.01e-12    4.01e-13    3.54e-12    8.81e-13
Cbc:      2.01e-13    1.07e-13    1.21e-13    1.16e-13    1.39e-13
Cjs:      3.00e-13    3.00e-13    3.00e-13    3.00e-13    3.00e-13
BetaAC:   8.00e+01    8.34e+01    9.27e-10    8.25e+01    8.12e+01
Cbx:      0.00e+00    0.00e+00    0.00e+00    0.00e+00    0.00e+00
Ft:       2.02e+08    5.37e+07    3.05e-01    3.77e+08    6.67e+06

Name:     q:u1:19     q:u1:21     q:u1:23    q:u1:24a    q:u1:24b
Model:    u1:qnl      u1:qnl      u1:qnl      u1:qnl      u1:qnl
Ib:       1.49e-08    1.90e-07    3.71e-06    6.34e-07    8.24e-07
Ic:       1.21e-06    1.54e-05    3.02e-04    5.07e-05    6.59e-05
Vbe:      1.19e+00    1.27e+00    1.36e+00    1.31e+00    1.31e+00
Vbc:     -1.55e+00   -1.36e+00   -1.83e+00    4.67e-02    4.67e-02
Vce:      2.74e+00    2.63e+00    3.19e+00    1.26e+00    1.27e+00
BetaDC:   8.12e+01    8.11e+01    8.15e+01    8.00e+01    8.00e+01
Gm:       3.89e-05    4.97e-04    9.73e-03    1.63e-03    2.12e-03
Rpi:      2.09e+06    1.63e+05    8.37e+03    4.90e+04    3.77e+04
Rx:       5.00e+02    5.00e+02    5.00e+02    5.00e+02    5.00e+02
Ro:       8.41e+07    6.57e+06    3.37e+05    1.97e+06    1.52e+06
Cbe:      8.78e-13    1.05e-12    3.86e-12    1.41e-12    1.56e-12
Cbc:      1.38e-13    1.42e-13    1.33e-13    2.05e-13    2.05e-13
Cjs:      3.00e-13    3.00e-13    3.00e-13    3.00e-13    3.00e-13
BetaAC:   8.12e+01    8.11e+01    8.14e+01    7.99e+01    7.99e+01
Cbx:      0.00e+00    0.00e+00    0.00e+00    0.00e+00    0.00e+00
Ft:       6.09e+06    6.63e+07    3.87e+08    1.61e+08    1.91e+08

Name:     q:u1:25     q:u1:26     q:u2:1
Model:    u1:qnl      u1:qnl    u2:m_bfp760
Ib:       1.00e-04    3.58e-04    1.68e-04
Ic:       8.29e-03    2.99e-02    3.91e-02
Vbe:      1.36e+00    1.33e+00    8.26e-01
Vbc:     -3.23e+00   -4.59e+00   -1.10e-01
Vce:      4.59e+00    5.93e+00    9.36e-01
BetaDC:   8.26e+01    8.37e+01    2.32e+02
Gm:       2.67e-01    9.64e-01    1.08e+00
Rpi:      3.09e+02    8.68e+01    1.54e+02
Rx:       2.00e+01    2.00e+00    2.69e+00
Ro:       1.25e+04    3.50e+03    7.01e+03
Cbe:      1.04e-10    5.22e-10    2.89e-12
Cbc:      2.88e-12    2.62e-11    1.20e-13
Cjs:      7.50e-12    7.50e-11    2.22e-13
BetaAC:   8.26e+01    8.37e+01    1.67e+02
Cbx:      0.00e+00    0.00e+00    5.14e-14
Ft:       3.99e+08    2.80e+08    5.63e+10

                        --- JFET Transistors ---
Name:    j:u1:1
Model:    u1:jn
Id:      4.42e-05
Vgs:    -5.74e+00
Vds:     1.90e-01
Gm:      3.79e-05
Gds:     2.14e-04
Cgs:     0.00e+00
Cgd:     0.00e+00


Total elapsed time: 0.147 seconds.

